time	V_out	V_in
0.000000000000000e+00	2.310643e-04	0.000000e+00
2.285714279943413e-06	2.102977e-04	7.180789e-05
4.571428559886826e-06	1.525758e-04	1.436157e-04
6.857142839830239e-06	5.789853e-05	2.154233e-04
9.142857119773651e-06	-7.373404e-05	2.872308e-04
1.142857139971706e-05	-2.423219e-04	3.590383e-04
1.371428567966048e-05	-4.478652e-04	4.308455e-04
1.599999995960388e-05	-6.903637e-04	5.026527e-04
2.928718476260301e-05	-2.704245e-03	9.200711e-04
4.843856758512027e-05	-7.243088e-03	1.521684e-03
7.658949671507250e-05	-1.665653e-02	2.405898e-03
1.153253288927249e-04	-3.340277e-02	3.622259e-03
1.641534538927249e-04	-5.847942e-02	5.154748e-03
2.129815788927249e-04	-8.613264e-02	6.686022e-03
2.618097038927249e-04	-1.151551e-01	8.215724e-03
3.106378288927249e-04	-1.448959e-01	9.743492e-03
4.082940788927248e-04	-2.052821e-01	1.279179e-02
5.687293467498679e-04	-3.057025e-01	1.780293e-02
7.291646146070109e-04	-4.047550e-01	2.273808e-02
8.895998824641539e-04	-5.024397e-01	2.759726e-02
1.050035150321297e-03	-5.987564e-01	3.238045e-02
1.210470418178440e-03	-6.937054e-01	3.708765e-02
1.370905686035583e-03	-7.872864e-01	4.171888e-02
1.531340953892726e-03	-8.794996e-01	4.627413e-02
1.810358811035582e-03	-1.035789e+00	5.397977e-02
2.089376668178438e-03	-1.181564e+00	6.114563e-02
2.368394525321295e-03	-1.316824e+00	6.777170e-02
2.647412382464152e-03	-1.441569e+00	7.385797e-02
2.926430239607008e-03	-1.555799e+00	7.940445e-02
3.205448096749865e-03	-1.659514e+00	8.441114e-02
3.484465953892720e-03	-1.752715e+00	8.887804e-02
3.686753900321291e-03	-1.810606e+00	9.162721e-02
3.889041846749862e-03	-1.860771e+00	9.398729e-02
4.091329793178433e-03	-1.903212e+00	9.595827e-02
4.293617739607004e-03	-1.937928e+00	9.754014e-02
4.495905686035574e-03	-1.964919e+00	9.873290e-02
4.698193632464145e-03	-1.984184e+00	9.953657e-02
4.900481578892716e-03	-1.995725e+00	9.995113e-02
5.067892293178430e-03	-1.998845e+00	9.997258e-02
5.235303007464143e-03	-1.996498e+00	9.972153e-02
5.402713721749857e-03	-1.988684e+00	9.919797e-02
5.570124436035571e-03	-1.975402e+00	9.840191e-02
5.737535150321284e-03	-1.956653e+00	9.733334e-02
5.904945864606999e-03	-1.932437e+00	9.599227e-02
6.072356578892712e-03	-1.902753e+00	9.437870e-02
6.344398989606997e-03	-1.841833e+00	9.112533e-02
6.616441400321282e-03	-1.769051e+00	8.728934e-02
6.888483811035568e-03	-1.684406e+00	8.287075e-02
7.160526221749853e-03	-1.587900e+00	7.786956e-02
7.432568632464139e-03	-1.479531e+00	7.228575e-02
7.704611043178424e-03	-1.359300e+00	6.611934e-02
7.976653453892708e-03	-1.227206e+00	5.937032e-02
8.178941400321283e-03	-1.123372e+00	5.408228e-02
8.381229346749857e-03	-1.016125e+00	4.863283e-02
8.583517293178432e-03	-9.054640e-01	4.302196e-02
8.785805239607005e-03	-7.913903e-01	3.724967e-02
8.988093186035580e-03	-6.739035e-01	3.131597e-02
9.190381132464155e-03	-5.530036e-01	2.522085e-02
9.392669078892728e-03	-4.286906e-01	1.896431e-02
9.476374436035587e-03	-3.771107e-01	1.637157e-02
9.560079793178446e-03	-3.253597e-01	1.377202e-02
9.643785150321304e-03	-2.734376e-01	1.116566e-02
9.727490507464163e-03	-2.213443e-01	8.552489e-03
9.811195864607020e-03	-1.690800e-01	5.932502e-03
9.894901221749878e-03	-1.166445e-01	3.305702e-03
9.978606578892737e-03	-6.403796e-02	6.720891e-04
1.027157532889274e-02	1.198806e-01	-8.521443e-03
1.042503515032132e-02	2.164601e-01	-1.334044e-02
1.057849497174989e-02	3.119894e-01	-1.810117e-02
1.073195479317846e-02	4.064684e-01	-2.280365e-02
1.088541461460703e-02	4.998972e-01	-2.744787e-02
1.103887443603561e-02	5.922758e-01	-3.203383e-02
1.119233425746418e-02	6.836041e-01	-3.656153e-02
1.134579407889276e-02	7.738822e-01	-4.103097e-02
1.160388559674990e-02	9.227614e-01	-4.838619e-02
1.186197711460705e-02	1.063428e+00	-5.531784e-02
1.212006863246420e-02	1.195882e+00	-6.182594e-02
1.237816015032134e-02	1.320123e+00	-6.791047e-02
1.263625166817849e-02	1.436151e+00	-7.357144e-02
1.289434318603564e-02	1.543967e+00	-7.880886e-02
1.315243470389278e-02	1.643570e+00	-8.362271e-02
1.337564898960707e-02	1.719957e+00	-8.729034e-02
1.359886327532136e-02	1.787196e+00	-9.049621e-02
1.382207756103565e-02	1.845290e+00	-9.324033e-02
1.404529184674994e-02	1.894236e+00	-9.552269e-02
1.426850613246423e-02	1.934037e+00	-9.734330e-02
1.449172041817852e-02	1.964690e+00	-9.870216e-02
1.471493470389280e-02	1.986197e+00	-9.959926e-02
1.488932086460709e-02	1.995735e+00	-9.993638e-02
1.506370702532138e-02	1.999311e+00	-9.997598e-02
1.523809318603567e-02	1.996925e+00	-9.971804e-02
1.541247934674996e-02	1.988578e+00	-9.916258e-02
1.558686550746425e-02	1.974269e+00	-9.830958e-02
1.576125166817853e-02	1.953998e+00	-9.715906e-02
1.593563782889282e-02	1.927765e+00	-9.571100e-02
1.619372934674997e-02	1.877170e+00	-9.298171e-02
1.645182086460711e-02	1.815472e+00	-8.970590e-02
1.670991238246426e-02	1.742670e+00	-8.588357e-02
1.696800390032141e-02	1.658764e+00	-8.151472e-02
1.722609541817855e-02	1.563755e+00	-7.659936e-02
1.748418693603570e-02	1.457643e+00	-7.113747e-02
1.774227845389285e-02	1.340427e+00	-6.512907e-02
1.795851729317856e-02	1.235291e+00	-5.975939e-02
1.817475613246428e-02	1.125779e+00	-5.418120e-02
1.839099497175000e-02	1.011893e+00	-4.839451e-02
1.860723381103572e-02	8.936317e-01	-4.239932e-02
1.882347265032143e-02	7.709956e-01	-3.619562e-02
1.903971148960715e-02	6.439847e-01	-2.978343e-02
1.925595032889287e-02	5.125989e-01	-2.316273e-02
1.936058202532144e-02	4.486387e-01	-1.994429e-02
1.946521372175002e-02	3.843685e-01	-1.671307e-02
1.956984541817859e-02	3.197885e-01	-1.346908e-02
1.967447711460716e-02	2.548986e-01	-1.021230e-02
1.977910881103574e-02	1.896988e-01	-6.942745e-03
1.988374050746431e-02	1.241891e-01	-3.660411e-03
1.998837220389288e-02	5.836960e-02	-3.652972e-04
2.003022488246431e-02	3.207921e-02	9.500962e-04
2.007207756103574e-02	5.794676e-03	2.264758e-03
2.011393023960717e-02	-2.048401e-02	3.578687e-03
2.015578291817860e-02	-4.675684e-02	4.891884e-03
2.019763559675003e-02	-7.302383e-02	6.204349e-03
2.023948827532145e-02	-9.928496e-02	7.516083e-03
2.028134095389288e-02	-1.255402e-01	8.827084e-03
2.043480077532146e-02	-2.220942e-01	1.364442e-02
2.058826059675003e-02	-3.175840e-01	1.840281e-02
2.074172041817860e-02	-4.120098e-01	2.310225e-02
2.089518023960718e-02	-5.053714e-01	2.774275e-02
2.104864006103575e-02	-5.976690e-01	3.232430e-02
2.120209988246433e-02	-6.889025e-01	3.684690e-02
2.135555970389290e-02	-7.790719e-01	4.131056e-02
2.161365122175005e-02	-9.277348e-01	4.865437e-02
2.187174273960719e-02	-1.068154e+00	5.557311e-02
2.212983425746434e-02	-1.200329e+00	6.206676e-02
2.238792577532148e-02	-1.324261e+00	6.813533e-02
2.264601729317863e-02	-1.439949e+00	7.377882e-02
2.290410881103578e-02	-1.547393e+00	7.899723e-02
2.316220032889292e-02	-1.646593e+00	8.379056e-02
2.338541461460721e-02	-1.722612e+00	8.743953e-02
2.360862890032150e-02	-1.789475e+00	9.062626e-02
2.383184318603579e-02	-1.847180e+00	9.335075e-02
2.405505747175008e-02	-1.895728e+00	9.561299e-02
2.427827175746437e-02	-1.935119e+00	9.741298e-02
2.450148604317866e-02	-1.965353e+00	9.875073e-02
2.472470032889295e-02	-1.986429e+00	9.962623e-02
2.489211104317866e-02	-1.995385e+00	9.993989e-02
2.505952175746438e-02	-1.998843e+00	9.997914e-02
2.522693247175010e-02	-1.996803e+00	9.974398e-02
2.539434318603581e-02	-1.989265e+00	9.923443e-02
2.556175390032153e-02	-1.976230e+00	9.845047e-02
2.572916461460725e-02	-1.957697e+00	9.739210e-02
2.589657532889296e-02	-1.933666e+00	9.605933e-02
2.615466684675011e-02	-1.884998e+00	9.342560e-02
2.641275836460726e-02	-1.825143e+00	9.024101e-02
2.667084988246440e-02	-1.754101e+00	8.650558e-02
2.692894140032155e-02	-1.671873e+00	8.221930e-02
2.718703291817870e-02	-1.578458e+00	7.738217e-02
2.744512443603584e-02	-1.473856e+00	7.199419e-02
2.770321595389299e-02	-1.358068e+00	6.605536e-02
2.791945479317871e-02	-1.254024e+00	6.073865e-02
2.813569363246442e-02	-1.145505e+00	5.520843e-02
2.835193247175014e-02	-1.032514e+00	4.946471e-02
2.856817131103586e-02	-9.150485e-01	4.350748e-02
2.878441015032157e-02	-7.931097e-01	3.733675e-02
2.900064898960729e-02	-6.666975e-01	3.095251e-02
2.921688782889301e-02	-5.358117e-01	2.435476e-02
2.932151952532158e-02	-4.720504e-01	2.114528e-02
2.942615122175016e-02	-4.079531e-01	1.792170e-02
2.953078291817873e-02	-3.435197e-01	1.468403e-02
2.963541461460730e-02	-2.787503e-01	1.143227e-02
2.974004631103588e-02	-2.136448e-01	8.166410e-03
2.984467800746445e-02	-1.482032e-01	4.886459e-03
2.994930970389302e-02	-8.242559e-02	1.592415e-03
2.999813782889302e-02	-5.175839e-02	5.759997e-05
3.004696595389302e-02	-2.109700e-02	-1.476327e-03
3.009579407889302e-02	9.558597e-03	-3.009366e-03
3.014462220389302e-02	4.020839e-02	-4.541517e-03
3.019345032889302e-02	7.085239e-02	-6.072779e-03
3.024227845389302e-02	1.014906e-01	-7.603153e-03
3.029110657889303e-02	1.321230e-01	-9.132640e-03
3.044456640032160e-02	2.286504e-01	-1.394827e-02
3.059802622175017e-02	3.240999e-01	-1.870427e-02
3.075148604317874e-02	4.184715e-01	-2.340064e-02
3.090494586460731e-02	5.117651e-01	-2.803737e-02
3.105840568603589e-02	6.039808e-01	-3.261447e-02
3.121186550746446e-02	6.951187e-01	-3.713193e-02
3.136532532889303e-02	7.851785e-01	-4.158976e-02
3.163039229317873e-02	9.376611e-01	-4.912121e-02
3.189545925746443e-02	1.081338e+00	-5.619891e-02
3.216052622175013e-02	1.216209e+00	-6.282284e-02
3.242559318603583e-02	1.342275e+00	-6.899303e-02
3.269066015032153e-02	1.459535e+00	-7.470945e-02
3.295572711460722e-02	1.567990e+00	-7.997212e-02
3.322079407889292e-02	1.667639e+00	-8.478103e-02
3.343703291817863e-02	1.739235e+00	-8.821211e-02
3.365327175746433e-02	1.802201e+00	-9.120766e-02
3.386951059675003e-02	1.856535e+00	-9.376766e-02
3.408574943603573e-02	1.902239e+00	-9.589212e-02
3.430198827532144e-02	1.939313e+00	-9.758104e-02
3.451822711460713e-02	1.967755e+00	-9.883442e-02
3.473446595389284e-02	1.987567e+00	-9.965226e-02
3.490187666817855e-02	1.996199e+00	-9.994970e-02
3.506928738246425e-02	1.999335e+00	-9.997282e-02
3.523669809674995e-02	1.996974e+00	-9.972162e-02
3.540410881103566e-02	1.989116e+00	-9.919609e-02
3.557151952532137e-02	1.975762e+00	-9.839625e-02
3.573893023960707e-02	1.956912e+00	-9.732209e-02
3.590634095389277e-02	1.932565e+00	-9.597360e-02
3.616443247174990e-02	1.883414e+00	-9.331594e-02
3.642252398960703e-02	1.823097e+00	-9.010851e-02
3.668061550746415e-02	1.751614e+00	-8.635130e-02
3.693870702532129e-02	1.668966e+00	-8.204431e-02
3.719679854317842e-02	1.575151e+00	-7.718756e-02
3.745489006103554e-02	1.470170e+00	-7.178102e-02
3.771298157889267e-02	1.354024e+00	-6.582472e-02
3.792922041817837e-02	1.249705e+00	-6.049469e-02
3.814545925746407e-02	1.140937e+00	-5.495240e-02
3.836169809674977e-02	1.027720e+00	-4.919785e-02
3.857793693603548e-02	9.100537e-01	-4.323105e-02
3.879417577532118e-02	7.879389e-01	-3.705199e-02
3.901041461460688e-02	6.613752e-01	-3.066067e-02
3.922665345389258e-02	5.303625e-01	-2.405709e-02
3.933128515032115e-02	4.665506e-01	-2.084532e-02
3.943591684674971e-02	4.024092e-01	-1.761979e-02
3.954054854317828e-02	3.379382e-01	-1.438049e-02
3.964518023960684e-02	2.731377e-01	-1.112743e-02
3.974981193603541e-02	2.080077e-01	-7.860603e-03
3.985444363246397e-02	1.425482e-01	-4.580009e-03
3.995907532889254e-02	7.675921e-02	-1.285651e-03
4.001487890032111e-02	4.170018e-02	4.687784e-04
4.007068247174968e-02	6.655309e-03	2.221718e-03
4.012648604317825e-02	-2.837539e-02	3.973168e-03
4.018228961460681e-02	-6.339192e-02	5.723129e-03
4.023809318603538e-02	-9.839428e-02	7.471600e-03
4.029389675746395e-02	-1.333825e-01	9.218581e-03
4.034970032889252e-02	-1.683565e-01	1.096407e-02
4.051013559674965e-02	-2.691241e-01	1.598871e-02
4.067057086460679e-02	-3.685858e-01	2.094182e-02
4.083100613246392e-02	-4.667417e-01	2.582340e-02
4.099144140032106e-02	-5.635917e-01	3.063347e-02
4.115187666817819e-02	-6.591359e-01	3.537202e-02
4.131231193603532e-02	-7.533743e-01	4.003904e-02
4.147274720389246e-02	-8.463067e-01	4.463454e-02
4.174478961460672e-02	-1.000189e+00	5.222651e-02
4.201683202532100e-02	-1.144348e+00	5.931860e-02
4.228887443603527e-02	-1.278783e+00	6.591082e-02
4.256091684674954e-02	-1.403494e+00	7.200316e-02
4.283295925746380e-02	-1.518482e+00	7.759563e-02
4.310500166817808e-02	-1.623745e+00	8.268823e-02
4.337704407889235e-02	-1.719286e+00	8.728096e-02
4.358630747174948e-02	-1.783030e+00	9.032027e-02
4.379557086460661e-02	-1.838574e+00	9.294627e-02
4.400483425746374e-02	-1.885919e+00	9.515896e-02
4.421409765032087e-02	-1.925064e+00	9.695834e-02
4.442336104317800e-02	-1.956010e+00	9.834442e-02
4.463262443603513e-02	-1.978755e+00	9.931719e-02
4.484188782889226e-02	-1.993302e+00	9.987666e-02
4.500929854317797e-02	-1.998369e+00	9.999556e-02
4.517670925746367e-02	-1.997957e+00	9.984124e-02
4.534411997174938e-02	-1.992066e+00	9.941369e-02
4.551153068603508e-02	-1.980695e+00	9.871290e-02
4.567894140032079e-02	-1.963845e+00	9.773888e-02
4.584635211460649e-02	-1.941516e+00	9.649163e-02
4.601376282889220e-02	-1.913707e+00	9.497115e-02
4.627882979317790e-02	-1.857547e+00	9.195981e-02
4.654389675746359e-02	-1.789918e+00	8.838466e-02
4.680896372174929e-02	-1.710822e+00	8.424569e-02
4.707403068603500e-02	-1.620257e+00	7.954290e-02
4.733909765032070e-02	-1.518223e+00	7.427629e-02
4.760416461460639e-02	-1.404721e+00	6.844586e-02
4.786923157889209e-02	-1.279751e+00	6.205161e-02
4.805059318603494e-02	-1.189424e+00	5.744471e-02
4.823195479317779e-02	-1.096023e+00	5.269135e-02
4.841331640032064e-02	-9.995490e-01	4.779153e-02
4.859467800746348e-02	-9.000012e-01	4.274525e-02
4.877603961460632e-02	-7.973797e-01	3.755251e-02
4.895740122174917e-02	-6.916845e-01	3.221331e-02
4.913876282889202e-02	-5.829158e-01	2.672765e-02
4.925036997174916e-02	-5.153124e-01	2.332261e-02
4.936197711460629e-02	-4.472859e-01	1.989949e-02
4.947358425746343e-02	-3.788362e-01	1.645828e-02
4.958519140032057e-02	-3.099634e-01	1.299899e-02
4.969679854317770e-02	-2.406675e-01	9.521611e-03
4.980840568603484e-02	-1.709484e-01	6.026151e-03
4.992001282889198e-02	-1.008062e-01	2.512607e-03
5.000000000000000e-02	-5.060708e-02	6.123234e-17
